
T1EEC 000:729 SEGGER J-Link V4.15n (beta) Log File (0000ms, 0728ms total)
T1EEC 000:729 DLL Compiled: Jun 18 2010 19:55:09 (0000ms, 0728ms total)
T1EEC 000:729 Logging started @ 2017-01-05 15:42 (0000ms, 0728ms total)
T1EEC 000:729 JLINK_SetWarnOutHandler(...) (0000ms, 0728ms total)
T1EEC 000:729 JLINK_OpenEx(...)
Firmware: J-Link ARM-OB STM32 compiled Aug 22 2012 19:52:04
Hardware: V7.00
S/N: 20160414
Feature(s): RDI,FlashDL,FlashBP,JFlash,GDBFull  returns O.K. (0127ms, 0728ms total)
T1EEC 000:856 JLINK_SetErrorOutHandler(...) (0000ms, 0855ms total)
T1EEC 000:857 JLINK_ExecCommand("ProjectFile = "H:\喵呜实验室\项目\Mwbalanced\代码\Mwbalanced-ultimate-stm32-firmware-DMP-none\JLinkSettings.ini"", ...)  returns 0x00 (0001ms, 0855ms total)
T1EEC 000:861 JLINK_ExecCommand("DisableConnectionTimeout", ...)  returns 0x00 (0000ms, 0856ms total)
T1EEC 000:861 JLINK_TIF_Select(JLINKARM_TIF_SWD)  returns 0x00 (0001ms, 0856ms total)
T1EEC 000:862 JLINK_SetSpeed(2000) (0000ms, 0857ms total)
T1EEC 000:862 JLINK_GetHardwareVersion()  returns 0x11170 (0000ms, 0857ms total)
T1EEC 000:862 JLINK_GetDLLVersion()  returns 41514 (0000ms, 0857ms total)
T1EEC 000:862 JLINK_GetFirmwareString(...) (0000ms, 0857ms total)
T1EEC 000:871 JLINK_GetDLLVersion()  returns 41514 (0000ms, 0857ms total)
T1EEC 000:871 JLINK_GetCompileDateTime() (0000ms, 0857ms total)
T1EEC 000:872 JLINK_GetFirmwareString(...) (0000ms, 0857ms total)
T1EEC 000:874 JLINK_GetHardwareVersion()  returns 0x11170 (0000ms, 0857ms total)
T1EEC 000:880 JLINK_Reset() >0x108 TIF>Found SWD-DP with ID 0x1BA01477 >0x33 TIF> >0x33 TIF> >0x35 TIF> >0x33 TIF> >0x33 TIF> >0x9B TIF> >0x9B TIF> >0x1D7 TIF> >0x13A TIF> >0x1D7 TIF> >0x13A TIF>TPIU fitted. >0x13A TIF> >0x13A TIF>  FPUnit: 6 code (BP) slots and 2 literal slots >0x13A TIF> >0x13A TIF> >0x1D7 TIF> >0x1D7 TIF> >0x20C TIF> >0x13A TIF> >0x13A TIF> >0x1D7 TIF> >0x1D7 TIF> >0x13A TIF> >0x13A TIF> >0x11E4 TIF> >0x1D7 TIF> >0x13A TIF> >0x11E4 TIF> (0046ms, 0857ms total)
T1EEC 000:926 JLINK_JTAG_StoreRaw(..., 0x108 Bits)  returns 0x00 (0000ms, 0903ms total)
T1EEC 000:926 JLINK_JTAG_GetU32(BitPos = 227) >0x108 TIF>  returns 0x1BA01477 (0001ms, 0903ms total)
T1EEC 000:927 JLINK_GetDebugInfo(0x100) -- Value=0xE00FF003  returns 0x00 (0000ms, 0904ms total)
T1EEC 000:929 JLINK_ReadMem (0xE00FF000, 0x0018 Bytes, ...) -- CPU_ReadMem(24 bytes @ 0xE00FF000) -- Data:  03 F0 F0 FF 03 20 F0 FF 03 30 F0 FF 03 10 F0 FF ...  returns 0x00 (0002ms, 0904ms total)
T1EEC 000:931 JLINK_ReadMemU32(0xE000ED00, 0x0001 Items, ...) -- CPU_ReadMem(4 bytes @ 0xE000ED00) -- Data:  31 C2 1F 41  returns 0x01 (0000ms, 0906ms total)
T1EEC 000:932 JLINK_Halt()  returns 0x00 (0000ms, 0906ms total)
T1EEC 000:932 JLINK_IsHalted()  returns TRUE (0000ms, 0906ms total)
T1EEC 000:932 JLINK_ReadMemU32(0xE000EDF0, 0x0001 Items, ...) -- CPU_ReadMem(4 bytes @ 0xE000EDF0) -- Data:  03 00 03 00  returns 0x01 (0001ms, 0906ms total)
T1EEC 000:933 JLINK_WriteU32(0xE000EDF0, 0xA05F0003) -- CPU_WriteMem(4 bytes @ 0xE000EDF0)  returns 0x00 (0000ms, 0907ms total)
T1EEC 000:933 JLINK_WriteU32(0xE000EDFC, 0x01000000) -- CPU_WriteMem(4 bytes @ 0xE000EDFC)  returns 0x00 (0001ms, 0907ms total)
T1EEC 000:934 JLINK_ReadMemU32(0xE0002000, 0x0001 Items, ...) -- CPU_ReadMem(4 bytes @ 0xE0002000) -- Data:  60 02 00 00  returns 0x01 (0001ms, 0908ms total)
T1EEC 000:935 JLINK_ReadMemU32(0xE0001000, 0x0001 Items, ...) -- CPU_ReadMem(4 bytes @ 0xE0001000) -- Data:  00 00 00 40  returns 0x01 (0001ms, 0909ms total)
T1EEC 000:942 JLINK_ExecCommand("Device = STM32F103C8", ...)
                JLINK_ExecCommand("map ram 0x20000000 - 0x20004FFF", ...)  returns 0x00 (0000ms, 0000ms total)
                JLINK_AddMirrorAreaEx(Addr = 0x00000000, Size = 0x00000000) (0000ms, 0000ms total)
                returns 0x00 (0001ms, 0910ms total)
T1EEC 000:943 JLINK_GetHWStatus(...)  returns 0x00 (0000ms, 0911ms total)
T1EEC 000:947 JLINK_GetNumBPUnits(Type = 0xFFFFFF00) >0x108 TIF>Found SWD-DP with ID 0x1BA01477 >0x33 TIF> >0x33 TIF> >0x35 TIF> >0x33 TIF> >0x35 TIF> >0x33 TIF> >0x33 TIF> >0x9B TIF> >0x9B TIF> >0x1D7 TIF> >0x13A TIF> >0x13A TIF>TPIU fitted. >0x13A TIF> >0x13A TIF>  FPUnit: 6 code (BP) slots and 2 literal slots >0x13A TIF> >0x13A TIF>  returns 0x06 (0020ms, 0911ms total)
T1EEC 000:967 JLINK_GetNumBPUnits(Type = 0xF0)  returns 0x800 (0000ms, 0931ms total)
T1EEC 000:967 JLINK_GetNumWPUnits()  returns 0x04 (0000ms, 0931ms total)
T1EEC 000:972 JLINK_GetSpeed()  returns 0x7D0 (0000ms, 0931ms total)
T1EEC 000:983 JLINK_ReadMemU32(0xE000E004, 0x0001 Items, ...) -- CPU_ReadMem(4 bytes @ 0xE000E004) -- Data:  01 00 00 00  returns 0x01 (0001ms, 0931ms total)
T1EEC 000:984 JLINK_WriteMem(0xE0001000, 0x001C Bytes, ...) -- Data:  01 00 00 00 00 00 00 00 00 00 00 00 00 00 00 00 ... -- CPU_WriteMem(28 bytes @ 0xE0001000)  returns 0x1C (0001ms, 0932ms total)
T1EEC 000:985 JLINK_ReadMem (0xE0001000, 0x001C Bytes, ...) -- CPU_ReadMem(28 bytes @ 0xE0001000) -- Data:  01 00 00 40 00 00 00 00 00 00 00 00 00 00 00 00 ...  returns 0x00 (0001ms, 0933ms total)
T1EEC 000:986 JLINK_Halt()  returns 0x00 (0000ms, 0934ms total)
T1EEC 000:986 JLINK_IsHalted()  returns TRUE (0000ms, 0934ms total)
T1EEC 000:987 JLINK_WriteMem(0x20000000, 0x0164 Bytes, ...) -- Data:  00 BE 0A E0 0D 78 2D 06 68 40 08 24 40 00 00 D3 ... -- CPU_WriteMem(356 bytes @ 0x20000000)  returns 0x164 (0005ms, 0934ms total)
T1EEC 000:993 JLINK_WriteReg(R0, 0x08000000)  returns 0x00 (0000ms, 0939ms total)
T1EEC 000:993 JLINK_WriteReg(R1, 0x007A1200)  returns 0x00 (0000ms, 0939ms total)
T1EEC 000:993 JLINK_WriteReg(R2, 0x00000001)  returns 0x00 (0000ms, 0939ms total)
T1EEC 000:993 JLINK_WriteReg(R3, 0x00000000)  returns 0x00 (0000ms, 0939ms total)
T1EEC 000:993 JLINK_WriteReg(R4, 0x00000000)  returns 0x00 (0000ms, 0939ms total)
T1EEC 000:993 JLINK_WriteReg(R5, 0x00000000)  returns 0x00 (0000ms, 0939ms total)
T1EEC 000:993 JLINK_WriteReg(R6, 0x00000000)  returns 0x00 (0000ms, 0939ms total)
T1EEC 000:993 JLINK_WriteReg(R7, 0x00000000)  returns 0x00 (0000ms, 0939ms total)
T1EEC 000:993 JLINK_WriteReg(R8, 0x00000000)  returns 0x00 (0000ms, 0939ms total)
T1EEC 000:993 JLINK_WriteReg(R9, 0x20000160)  returns 0x00 (0000ms, 0939ms total)
T1EEC 000:993 JLINK_WriteReg(R10, 0x00000000)  returns 0x00 (0000ms, 0939ms total)
T1EEC 000:993 JLINK_WriteReg(R11, 0x00000000)  returns 0x00 (0000ms, 0939ms total)
T1EEC 000:993 JLINK_WriteReg(R12, 0x00000000)  returns 0x00 (0000ms, 0939ms total)
T1EEC 000:993 JLINK_WriteReg(R13, 0x20000800)  returns 0x00 (0000ms, 0939ms total)
T1EEC 000:993 JLINK_WriteReg(R14, 0x20000001)  returns 0x00 (0000ms, 0939ms total)
T1EEC 000:993 JLINK_WriteReg(R15, 0x20000038)  returns 0x00 (0000ms, 0939ms total)
T1EEC 000:993 JLINK_WriteReg(XPSR, 0x01000000)  returns 0x00 (0000ms, 0939ms total)
T1EEC 000:993 JLINK_WriteReg(MSP, 0x20000800)  returns 0x00 (0000ms, 0939ms total)
T1EEC 000:993 JLINK_WriteReg(PSP, 0x20000800)  returns 0x00 (0000ms, 0939ms total)
T1EEC 000:993 JLINK_WriteReg(CFBP, 0x00000000)  returns 0x00 (0000ms, 0939ms total)
T1EEC 000:993 JLINK_SetBPEx(Addr = 0x20000000, Type = 0xFFFFFFF2) -- CPU_ReadMem(2 bytes @ 0x20000000)  returns 0x00000001 (0001ms, 0939ms total)
T1EEC 000:994 JLINK_Go() -- CPU_WriteMem(2 bytes @ 0x20000000) -- CPU_WriteMem(4 bytes @ 0xE0002008) -- CPU_WriteMem(4 bytes @ 0xE000200C) -- CPU_WriteMem(4 bytes @ 0xE0002010) -- CPU_WriteMem(4 bytes @ 0xE0002014) -- CPU_WriteMem(4 bytes @ 0xE0002018) -- CPU_WriteMem(4 bytes @ 0xE000201C) (0009ms, 0940ms total)
T1EEC 001:003 JLINK_IsHalted() -- CPU_ReadMem(2 bytes @ 0x20000000)  returns TRUE (0005ms, 0949ms total)
T1EEC 001:008 JLINK_ReadReg(R15)  returns 0x20000000 (0000ms, 0949ms total)
T1EEC 001:008 JLINK_ClrBPEx(BPHandle = 0x00000001)  returns 0x00 (0000ms, 0949ms total)
T1EEC 001:008 JLINK_ReadReg(R0)  returns 0x00000000 (0000ms, 0949ms total)
T1EEC 001:010 JLINK_WriteReg(R0, 0x08000000)  returns 0x00 (0000ms, 0949ms total)
T1EEC 001:010 JLINK_WriteReg(R1, 0x007A1200)  returns 0x00 (0000ms, 0949ms total)
T1EEC 001:010 JLINK_WriteReg(R2, 0x00000001)  returns 0x00 (0000ms, 0949ms total)
T1EEC 001:010 JLINK_WriteReg(R3, 0x00000000)  returns 0x00 (0000ms, 0949ms total)
T1EEC 001:010 JLINK_WriteReg(R4, 0x00000000)  returns 0x00 (0000ms, 0949ms total)
T1EEC 001:010 JLINK_WriteReg(R5, 0x00000000)  returns 0x00 (0000ms, 0949ms total)
T1EEC 001:010 JLINK_WriteReg(R6, 0x00000000)  returns 0x00 (0000ms, 0949ms total)
T1EEC 001:010 JLINK_WriteReg(R7, 0x00000000)  returns 0x00 (0000ms, 0949ms total)
T1EEC 001:010 JLINK_WriteReg(R8, 0x00000000)  returns 0x00 (0000ms, 0949ms total)
T1EEC 001:010 JLINK_WriteReg(R9, 0x20000160)  returns 0x00 (0000ms, 0949ms total)
T1EEC 001:010 JLINK_WriteReg(R10, 0x00000000)  returns 0x00 (0000ms, 0949ms total)
T1EEC 001:010 JLINK_WriteReg(R11, 0x00000000)  returns 0x00 (0000ms, 0949ms total)
T1EEC 001:010 JLINK_WriteReg(R12, 0x00000000)  returns 0x00 (0000ms, 0949ms total)
T1EEC 001:010 JLINK_WriteReg(R13, 0x20000800)  returns 0x00 (0000ms, 0949ms total)
T1EEC 001:010 JLINK_WriteReg(R14, 0x20000001)  returns 0x00 (0000ms, 0949ms total)
T1EEC 001:010 JLINK_WriteReg(R15, 0x2000007C)  returns 0x00 (0000ms, 0949ms total)
T1EEC 001:010 JLINK_WriteReg(XPSR, 0x01000000)  returns 0x00 (0000ms, 0949ms total)
T1EEC 001:010 JLINK_WriteReg(MSP, 0x20000800)  returns 0x00 (0000ms, 0949ms total)
T1EEC 001:010 JLINK_WriteReg(PSP, 0x20000800)  returns 0x00 (0000ms, 0949ms total)
T1EEC 001:010 JLINK_WriteReg(CFBP, 0x00000000)  returns 0x00 (0000ms, 0949ms total)
T1EEC 001:010 JLINK_SetBPEx(Addr = 0x20000000, Type = 0xFFFFFFF2)  returns 0x00000002 (0000ms, 0949ms total)
T1EEC 001:010 JLINK_Go() -- CPU_WriteMem(4 bytes @ 0xE0002008) -- CPU_WriteMem(4 bytes @ 0xE000200C) -- CPU_WriteMem(4 bytes @ 0xE0002010) -- CPU_WriteMem(4 bytes @ 0xE0002014) -- CPU_WriteMem(4 bytes @ 0xE0002018) -- CPU_WriteMem(4 bytes @ 0xE000201C) (0006ms, 0949ms total)
T1EEC 001:016 JLINK_IsHalted()  returns FALSE (0001ms, 0955ms total)
T1EEC 001:067 JLINK_IsHalted() -- CPU_ReadMem(2 bytes @ 0x20000000)  returns TRUE (0004ms, 0955ms total)
T1EEC 001:071 JLINK_ReadReg(R15)  returns 0x20000000 (0000ms, 0955ms total)
T1EEC 001:071 JLINK_ClrBPEx(BPHandle = 0x00000002)  returns 0x00 (0000ms, 0955ms total)
T1EEC 001:071 JLINK_ReadReg(R0)  returns 0x00000000 (0000ms, 0955ms total)
T1EEC 001:122 JLINK_WriteReg(R0, 0x00000001)  returns 0x00 (0000ms, 0955ms total)
T1EEC 001:122 JLINK_WriteReg(R1, 0x007A1200)  returns 0x00 (0000ms, 0955ms total)
T1EEC 001:122 JLINK_WriteReg(R2, 0x00000001)  returns 0x00 (0000ms, 0955ms total)
T1EEC 001:122 JLINK_WriteReg(R3, 0x00000000)  returns 0x00 (0000ms, 0955ms total)
T1EEC 001:122 JLINK_WriteReg(R4, 0x00000000)  returns 0x00 (0000ms, 0955ms total)
T1EEC 001:122 JLINK_WriteReg(R5, 0x00000000)  returns 0x00 (0000ms, 0955ms total)
T1EEC 001:122 JLINK_WriteReg(R6, 0x00000000)  returns 0x00 (0000ms, 0955ms total)
T1EEC 001:122 JLINK_WriteReg(R7, 0x00000000)  returns 0x00 (0000ms, 0955ms total)
T1EEC 001:122 JLINK_WriteReg(R8, 0x00000000)  returns 0x00 (0000ms, 0955ms total)
T1EEC 001:122 JLINK_WriteReg(R9, 0x20000160)  returns 0x00 (0000ms, 0955ms total)
T1EEC 001:122 JLINK_WriteReg(R10, 0x00000000)  returns 0x00 (0000ms, 0955ms total)
T1EEC 001:122 JLINK_WriteReg(R11, 0x00000000)  returns 0x00 (0000ms, 0955ms total)
T1EEC 001:122 JLINK_WriteReg(R12, 0x00000000)  returns 0x00 (0000ms, 0955ms total)
T1EEC 001:122 JLINK_WriteReg(R13, 0x20000800)  returns 0x00 (0000ms, 0955ms total)
T1EEC 001:122 JLINK_WriteReg(R14, 0x20000001)  returns 0x00 (0000ms, 0955ms total)
T1EEC 001:122 JLINK_WriteReg(R15, 0x2000006A)  returns 0x00 (0000ms, 0955ms total)
T1EEC 001:122 JLINK_WriteReg(XPSR, 0x01000000)  returns 0x00 (0000ms, 0955ms total)
T1EEC 001:122 JLINK_WriteReg(MSP, 0x20000800)  returns 0x00 (0000ms, 0955ms total)
T1EEC 001:122 JLINK_WriteReg(PSP, 0x20000800)  returns 0x00 (0000ms, 0955ms total)
T1EEC 001:122 JLINK_WriteReg(CFBP, 0x00000000)  returns 0x00 (0000ms, 0955ms total)
T1EEC 001:122 JLINK_SetBPEx(Addr = 0x20000000, Type = 0xFFFFFFF2)  returns 0x00000003 (0000ms, 0955ms total)
T1EEC 001:122 JLINK_Go() -- CPU_WriteMem(4 bytes @ 0xE0002008) -- CPU_WriteMem(4 bytes @ 0xE000200C) -- CPU_WriteMem(4 bytes @ 0xE0002010) -- CPU_WriteMem(4 bytes @ 0xE0002014) -- CPU_WriteMem(4 bytes @ 0xE0002018) -- CPU_WriteMem(4 bytes @ 0xE000201C) (0006ms, 0955ms total)
T1EEC 001:128 JLINK_IsHalted() -- CPU_ReadMem(2 bytes @ 0x20000000)  returns TRUE (0005ms, 0961ms total)
T1EEC 001:133 JLINK_ReadReg(R15)  returns 0x20000000 (0000ms, 0961ms total)
T1EEC 001:133 JLINK_ClrBPEx(BPHandle = 0x00000003)  returns 0x00 (0000ms, 0961ms total)
T1EEC 001:133 JLINK_ReadReg(R0)  returns 0x00000000 (0000ms, 0961ms total)
T1EEC 001:137 JLINK_WriteMem(0x20000000, 0x0164 Bytes, ...) -- Data:  00 BE 0A E0 0D 78 2D 06 68 40 08 24 40 00 00 D3 ... -- CPU_WriteMem(356 bytes @ 0x20000000)  returns 0x164 (0005ms, 0961ms total)
T1EEC 001:142 JLINK_WriteReg(R0, 0x08000000)  returns 0x00 (0000ms, 0966ms total)
T1EEC 001:142 JLINK_WriteReg(R1, 0x007A1200)  returns 0x00 (0000ms, 0966ms total)
T1EEC 001:142 JLINK_WriteReg(R2, 0x00000002)  returns 0x00 (0000ms, 0966ms total)
T1EEC 001:142 JLINK_WriteReg(R3, 0x00000000)  returns 0x00 (0000ms, 0966ms total)
T1EEC 001:142 JLINK_WriteReg(R4, 0x00000000)  returns 0x00 (0000ms, 0966ms total)
T1EEC 001:142 JLINK_WriteReg(R5, 0x00000000)  returns 0x00 (0000ms, 0966ms total)
T1EEC 001:142 JLINK_WriteReg(R6, 0x00000000)  returns 0x00 (0000ms, 0966ms total)
T1EEC 001:142 JLINK_WriteReg(R7, 0x00000000)  returns 0x00 (0000ms, 0966ms total)
T1EEC 001:142 JLINK_WriteReg(R8, 0x00000000)  returns 0x00 (0000ms, 0966ms total)
T1EEC 001:142 JLINK_WriteReg(R9, 0x20000160)  returns 0x00 (0000ms, 0966ms total)
T1EEC 001:142 JLINK_WriteReg(R10, 0x00000000)  returns 0x00 (0000ms, 0966ms total)
T1EEC 001:142 JLINK_WriteReg(R11, 0x00000000)  returns 0x00 (0000ms, 0966ms total)
T1EEC 001:142 JLINK_WriteReg(R12, 0x00000000)  returns 0x00 (0000ms, 0966ms total)
T1EEC 001:142 JLINK_WriteReg(R13, 0x20000800)  returns 0x00 (0000ms, 0966ms total)
T1EEC 001:142 JLINK_WriteReg(R14, 0x20000001)  returns 0x00 (0000ms, 0966ms total)
T1EEC 001:142 JLINK_WriteReg(R15, 0x20000038)  returns 0x00 (0000ms, 0966ms total)
T1EEC 001:142 JLINK_WriteReg(XPSR, 0x01000000)  returns 0x00 (0000ms, 0966ms total)
T1EEC 001:142 JLINK_WriteReg(MSP, 0x20000800)  returns 0x00 (0000ms, 0966ms total)
T1EEC 001:142 JLINK_WriteReg(PSP, 0x20000800)  returns 0x00 (0000ms, 0966ms total)
T1EEC 001:142 JLINK_WriteReg(CFBP, 0x00000000)  returns 0x00 (0000ms, 0966ms total)
T1EEC 001:142 JLINK_SetBPEx(Addr = 0x20000000, Type = 0xFFFFFFF2) -- CPU_ReadMem(2 bytes @ 0x20000000)  returns 0x00000004 (0001ms, 0966ms total)
T1EEC 001:143 JLINK_Go() -- CPU_WriteMem(2 bytes @ 0x20000000) -- CPU_WriteMem(4 bytes @ 0xE0002008) -- CPU_WriteMem(4 bytes @ 0xE000200C) -- CPU_WriteMem(4 bytes @ 0xE0002010) -- CPU_WriteMem(4 bytes @ 0xE0002014) -- CPU_WriteMem(4 bytes @ 0xE0002018) -- CPU_WriteMem(4 bytes @ 0xE000201C) (0007ms, 0967ms total)
T1EEC 001:150 JLINK_IsHalted() -- CPU_ReadMem(2 bytes @ 0x20000000)  returns TRUE (0005ms, 0974ms total)
T1EEC 001:155 JLINK_ReadReg(R15)  returns 0x20000000 (0000ms, 0974ms total)
T1EEC 001:155 JLINK_ClrBPEx(BPHandle = 0x00000004)  returns 0x00 (0000ms, 0974ms total)
T1EEC 001:155 JLINK_ReadReg(R0)  returns 0x00000000 (0000ms, 0974ms total)
T1EEC 001:155 JLINK_WriteMem(0x20000164, 0x0400 Bytes, ...) -- Data:  D8 06 00 20 19 48 00 08 A5 27 00 08 A7 27 00 08 ... -- CPU_WriteMem(1024 bytes @ 0x20000164)  returns 0x400 (0013ms, 0974ms total)
T1EEC 001:168 JLINK_WriteReg(R0, 0x08000000)  returns 0x00 (0000ms, 0987ms total)
T1EEC 001:168 JLINK_WriteReg(R1, 0x00000400)  returns 0x00 (0000ms, 0987ms total)
T1EEC 001:168 JLINK_WriteReg(R2, 0x20000164)  returns 0x00 (0000ms, 0987ms total)
T1EEC 001:168 JLINK_WriteReg(R3, 0x00000000)  returns 0x00 (0000ms, 0987ms total)
T1EEC 001:168 JLINK_WriteReg(R4, 0x00000000)  returns 0x00 (0000ms, 0987ms total)
T1EEC 001:168 JLINK_WriteReg(R5, 0x00000000)  returns 0x00 (0000ms, 0987ms total)
T1EEC 001:168 JLINK_WriteReg(R6, 0x00000000)  returns 0x00 (0000ms, 0987ms total)
T1EEC 001:168 JLINK_WriteReg(R7, 0x00000000)  returns 0x00 (0000ms, 0987ms total)
T1EEC 001:168 JLINK_WriteReg(R8, 0x00000000)  returns 0x00 (0000ms, 0987ms total)
T1EEC 001:168 JLINK_WriteReg(R9, 0x20000160)  returns 0x00 (0000ms, 0987ms total)
T1EEC 001:168 JLINK_WriteReg(R10, 0x00000000)  returns 0x00 (0000ms, 0987ms total)
T1EEC 001:168 JLINK_WriteReg(R11, 0x00000000)  returns 0x00 (0000ms, 0987ms total)
T1EEC 001:168 JLINK_WriteReg(R12, 0x00000000)  returns 0x00 (0000ms, 0987ms total)
T1EEC 001:168 JLINK_WriteReg(R13, 0x20000800)  returns 0x00 (0000ms, 0987ms total)
T1EEC 001:168 JLINK_WriteReg(R14, 0x20000001)  returns 0x00 (0000ms, 0987ms total)
T1EEC 001:168 JLINK_WriteReg(R15, 0x200000F4)  returns 0x00 (0000ms, 0987ms total)
T1EEC 001:168 JLINK_WriteReg(XPSR, 0x01000000)  returns 0x00 (0000ms, 0987ms total)
T1EEC 001:168 JLINK_WriteReg(MSP, 0x20000800)  returns 0x00 (0000ms, 0987ms total)
T1EEC 001:168 JLINK_WriteReg(PSP, 0x20000800)  returns 0x00 (0000ms, 0987ms total)
T1EEC 001:168 JLINK_WriteReg(CFBP, 0x00000000)  returns 0x00 (0000ms, 0987ms total)
T1EEC 001:168 JLINK_SetBPEx(Addr = 0x20000000, Type = 0xFFFFFFF2)  returns 0x00000005 (0000ms, 0987ms total)
T1EEC 001:168 JLINK_Go() -- CPU_WriteMem(4 bytes @ 0xE0002008) -- CPU_WriteMem(4 bytes @ 0xE000200C) -- CPU_WriteMem(4 bytes @ 0xE0002010) -- CPU_WriteMem(4 bytes @ 0xE0002014) -- CPU_WriteMem(4 bytes @ 0xE0002018) -- CPU_WriteMem(4 bytes @ 0xE000201C) (0006ms, 0987ms total)
T1EEC 001:174 JLINK_IsHalted()  returns FALSE (0001ms, 0993ms total)
T1EEC 001:225 JLINK_IsHalted() -- CPU_ReadMem(2 bytes @ 0x20000000)  returns TRUE (0005ms, 0993ms total)
T1EEC 001:230 JLINK_ReadReg(R15)  returns 0x20000000 (0000ms, 0993ms total)
T1EEC 001:230 JLINK_ClrBPEx(BPHandle = 0x00000005)  returns 0x00 (0000ms, 0993ms total)
T1EEC 001:230 JLINK_ReadReg(R0)  returns 0x00000000 (0000ms, 0993ms total)
T1EEC 001:230 JLINK_WriteMem(0x20000164, 0x0400 Bytes, ...) -- Data:  00 E0 00 20 70 47 01 46 C8 68 80 B2 70 47 01 61 ... -- CPU_WriteMem(1024 bytes @ 0x20000164)  returns 0x400 (0013ms, 0993ms total)
T1EEC 001:243 JLINK_WriteReg(R0, 0x08000400)  returns 0x00 (0000ms, 1006ms total)
T1EEC 001:243 JLINK_WriteReg(R1, 0x00000400)  returns 0x00 (0000ms, 1006ms total)
T1EEC 001:243 JLINK_WriteReg(R2, 0x20000164)  returns 0x00 (0000ms, 1006ms total)
T1EEC 001:243 JLINK_WriteReg(R3, 0x00000000)  returns 0x00 (0000ms, 1006ms total)
T1EEC 001:243 JLINK_WriteReg(R4, 0x00000000)  returns 0x00 (0000ms, 1006ms total)
T1EEC 001:243 JLINK_WriteReg(R5, 0x00000000)  returns 0x00 (0000ms, 1006ms total)
T1EEC 001:243 JLINK_WriteReg(R6, 0x00000000)  returns 0x00 (0000ms, 1006ms total)
T1EEC 001:243 JLINK_WriteReg(R7, 0x00000000)  returns 0x00 (0000ms, 1006ms total)
T1EEC 001:243 JLINK_WriteReg(R8, 0x00000000)  returns 0x00 (0000ms, 1006ms total)
T1EEC 001:243 JLINK_WriteReg(R9, 0x20000160)  returns 0x00 (0000ms, 1006ms total)
T1EEC 001:243 JLINK_WriteReg(R10, 0x00000000)  returns 0x00 (0000ms, 1006ms total)
T1EEC 001:243 JLINK_WriteReg(R11, 0x00000000)  returns 0x00 (0000ms, 1006ms total)
T1EEC 001:243 JLINK_WriteReg(R12, 0x00000000)  returns 0x00 (0000ms, 1006ms total)
T1EEC 001:243 JLINK_WriteReg(R13, 0x20000800)  returns 0x00 (0000ms, 1006ms total)
T1EEC 001:243 JLINK_WriteReg(R14, 0x20000001)  returns 0x00 (0000ms, 1006ms total)
T1EEC 001:243 JLINK_WriteReg(R15, 0x200000F4)  returns 0x00 (0000ms, 1006ms total)
T1EEC 001:243 JLINK_WriteReg(XPSR, 0x01000000)  returns 0x00 (0000ms, 1006ms total)
T1EEC 001:243 JLINK_WriteReg(MSP, 0x20000800)  returns 0x00 (0000ms, 1006ms total)
T1EEC 001:243 JLINK_WriteReg(PSP, 0x20000800)  returns 0x00 (0000ms, 1006ms total)
T1EEC 001:243 JLINK_WriteReg(CFBP, 0x00000000)  returns 0x00 (0000ms, 1006ms total)
T1EEC 001:243 JLINK_SetBPEx(Addr = 0x20000000, Type = 0xFFFFFFF2)  returns 0x00000006 (0000ms, 1006ms total)
T1EEC 001:243 JLINK_Go() -- CPU_WriteMem(4 bytes @ 0xE0002008) -- CPU_WriteMem(4 bytes @ 0xE000200C) -- CPU_WriteMem(4 bytes @ 0xE0002010) -- CPU_WriteMem(4 bytes @ 0xE0002014) -- CPU_WriteMem(4 bytes @ 0xE0002018) -- CPU_WriteMem(4 bytes @ 0xE000201C) (0006ms, 1006ms total)
T1EEC 001:249 JLINK_IsHalted()  returns FALSE (0001ms, 1012ms total)
T1EEC 001:300 JLINK_IsHalted() -- CPU_ReadMem(2 bytes @ 0x20000000)  returns TRUE (0004ms, 1012ms total)
T1EEC 001:304 JLINK_ReadReg(R15)  returns 0x20000000 (0000ms, 1012ms total)
T1EEC 001:304 JLINK_ClrBPEx(BPHandle = 0x00000006)  returns 0x00 (0000ms, 1012ms total)
T1EEC 001:304 JLINK_ReadReg(R0)  returns 0x00000000 (0000ms, 1012ms total)
T1EEC 001:305 JLINK_WriteMem(0x20000164, 0x0400 Bytes, ...) -- Data:  05 61 30 BD 29 B1 2E 4A 52 69 02 43 2C 4B 5A 61 ... -- CPU_WriteMem(1024 bytes @ 0x20000164)  returns 0x400 (0012ms, 1012ms total)
T1EEC 001:317 JLINK_WriteReg(R0, 0x08000800)  returns 0x00 (0000ms, 1024ms total)
T1EEC 001:317 JLINK_WriteReg(R1, 0x00000400)  returns 0x00 (0000ms, 1024ms total)
T1EEC 001:317 JLINK_WriteReg(R2, 0x20000164)  returns 0x00 (0000ms, 1024ms total)
T1EEC 001:317 JLINK_WriteReg(R3, 0x00000000)  returns 0x00 (0000ms, 1024ms total)
T1EEC 001:317 JLINK_WriteReg(R4, 0x00000000)  returns 0x00 (0000ms, 1024ms total)
T1EEC 001:317 JLINK_WriteReg(R5, 0x00000000)  returns 0x00 (0000ms, 1024ms total)
T1EEC 001:317 JLINK_WriteReg(R6, 0x00000000)  returns 0x00 (0000ms, 1024ms total)
T1EEC 001:317 JLINK_WriteReg(R7, 0x00000000)  returns 0x00 (0000ms, 1024ms total)
T1EEC 001:318 JLINK_WriteReg(R8, 0x00000000)  returns 0x00 (0000ms, 1025ms total)
T1EEC 001:318 JLINK_WriteReg(R9, 0x20000160)  returns 0x00 (0000ms, 1025ms total)
T1EEC 001:318 JLINK_WriteReg(R10, 0x00000000)  returns 0x00 (0000ms, 1025ms total)
T1EEC 001:318 JLINK_WriteReg(R11, 0x00000000)  returns 0x00 (0000ms, 1025ms total)
T1EEC 001:318 JLINK_WriteReg(R12, 0x00000000)  returns 0x00 (0000ms, 1025ms total)
T1EEC 001:318 JLINK_WriteReg(R13, 0x20000800)  returns 0x00 (0000ms, 1025ms total)
T1EEC 001:318 JLINK_WriteReg(R14, 0x20000001)  returns 0x00 (0000ms, 1025ms total)
T1EEC 001:318 JLINK_WriteReg(R15, 0x200000F4)  returns 0x00 (0000ms, 1025ms total)
T1EEC 001:318 JLINK_WriteReg(XPSR, 0x01000000)  returns 0x00 (0000ms, 1025ms total)
T1EEC 001:318 JLINK_WriteReg(MSP, 0x20000800)  returns 0x00 (0000ms, 1025ms total)
T1EEC 001:318 JLINK_WriteReg(PSP, 0x20000800)  returns 0x00 (0000ms, 1025ms total)
T1EEC 001:318 JLINK_WriteReg(CFBP, 0x00000000)  returns 0x00 (0000ms, 1025ms total)
T1EEC 001:318 JLINK_SetBPEx(Addr = 0x20000000, Type = 0xFFFFFFF2)  returns 0x00000007 (0000ms, 1025ms total)
T1EEC 001:318 JLINK_Go() -- CPU_WriteMem(4 bytes @ 0xE0002008) -- CPU_WriteMem(4 bytes @ 0xE000200C) -- CPU_WriteMem(4 bytes @ 0xE0002010) -- CPU_WriteMem(4 bytes @ 0xE0002014) -- CPU_WriteMem(4 bytes @ 0xE0002018) -- CPU_WriteMem(4 bytes @ 0xE000201C) (0006ms, 1025ms total)
T1EEC 001:324 JLINK_IsHalted()  returns FALSE (0001ms, 1031ms total)
T1EEC 001:375 JLINK_IsHalted() -- CPU_ReadMem(2 bytes @ 0x20000000)  returns TRUE (0004ms, 1031ms total)
T1EEC 001:379 JLINK_ReadReg(R15)  returns 0x20000000 (0000ms, 1031ms total)
T1EEC 001:379 JLINK_ClrBPEx(BPHandle = 0x00000007)  returns 0x00 (0000ms, 1031ms total)
T1EEC 001:379 JLINK_ReadReg(R0)  returns 0x00000000 (0000ms, 1031ms total)
T1EEC 001:380 JLINK_WriteMem(0x20000164, 0x0400 Bytes, ...) -- Data:  42 EA 15 42 4F F6 FF 35 2B 40 4F F2 FF 75 2B 40 ... -- CPU_WriteMem(1024 bytes @ 0x20000164)  returns 0x400 (0013ms, 1031ms total)
T1EEC 001:393 JLINK_WriteReg(R0, 0x08000C00)  returns 0x00 (0000ms, 1044ms total)
T1EEC 001:393 JLINK_WriteReg(R1, 0x00000400)  returns 0x00 (0000ms, 1044ms total)
T1EEC 001:393 JLINK_WriteReg(R2, 0x20000164)  returns 0x00 (0000ms, 1044ms total)
T1EEC 001:393 JLINK_WriteReg(R3, 0x00000000)  returns 0x00 (0000ms, 1044ms total)
T1EEC 001:393 JLINK_WriteReg(R4, 0x00000000)  returns 0x00 (0000ms, 1044ms total)
T1EEC 001:393 JLINK_WriteReg(R5, 0x00000000)  returns 0x00 (0000ms, 1044ms total)
T1EEC 001:393 JLINK_WriteReg(R6, 0x00000000)  returns 0x00 (0000ms, 1044ms total)
T1EEC 001:393 JLINK_WriteReg(R7, 0x00000000)  returns 0x00 (0000ms, 1044ms total)
T1EEC 001:393 JLINK_WriteReg(R8, 0x00000000)  returns 0x00 (0000ms, 1044ms total)
T1EEC 001:393 JLINK_WriteReg(R9, 0x20000160)  returns 0x00 (0000ms, 1044ms total)
T1EEC 001:393 JLINK_WriteReg(R10, 0x00000000)  returns 0x00 (0000ms, 1044ms total)
T1EEC 001:393 JLINK_WriteReg(R11, 0x00000000)  returns 0x00 (0000ms, 1044ms total)
T1EEC 001:393 JLINK_WriteReg(R12, 0x00000000)  returns 0x00 (0000ms, 1044ms total)
T1EEC 001:393 JLINK_WriteReg(R13, 0x20000800)  returns 0x00 (0000ms, 1044ms total)
T1EEC 001:393 JLINK_WriteReg(R14, 0x20000001)  returns 0x00 (0000ms, 1044ms total)
T1EEC 001:393 JLINK_WriteReg(R15, 0x200000F4)  returns 0x00 (0000ms, 1044ms total)
T1EEC 001:393 JLINK_WriteReg(XPSR, 0x01000000)  returns 0x00 (0000ms, 1044ms total)
T1EEC 001:393 JLINK_WriteReg(MSP, 0x20000800)  returns 0x00 (0000ms, 1044ms total)
T1EEC 001:393 JLINK_WriteReg(PSP, 0x20000800)  returns 0x00 (0000ms, 1044ms total)
T1EEC 001:393 JLINK_WriteReg(CFBP, 0x00000000)  returns 0x00 (0000ms, 1044ms total)
T1EEC 001:393 JLINK_SetBPEx(Addr = 0x20000000, Type = 0xFFFFFFF2)  returns 0x00000008 (0000ms, 1044ms total)
T1EEC 001:393 JLINK_Go() -- CPU_WriteMem(4 bytes @ 0xE0002008) -- CPU_WriteMem(4 bytes @ 0xE000200C) -- CPU_WriteMem(4 bytes @ 0xE0002010) -- CPU_WriteMem(4 bytes @ 0xE0002014) -- CPU_WriteMem(4 bytes @ 0xE0002018) -- CPU_WriteMem(4 bytes @ 0xE000201C) (0006ms, 1044ms total)
T1EEC 001:399 JLINK_IsHalted()  returns FALSE (0001ms, 1050ms total)
T1EEC 001:450 JLINK_IsHalted() -- CPU_ReadMem(2 bytes @ 0x20000000)  returns TRUE (0005ms, 1050ms total)
T1EEC 001:455 JLINK_ReadReg(R15)  returns 0x20000000 (0000ms, 1050ms total)
T1EEC 001:455 JLINK_ClrBPEx(BPHandle = 0x00000008)  returns 0x00 (0000ms, 1050ms total)
T1EEC 001:455 JLINK_ReadReg(R0)  returns 0x00000000 (0000ms, 1050ms total)
T1EEC 001:455 JLINK_WriteMem(0x20000164, 0x0400 Bytes, ...) -- Data:  A2 88 61 88 28 46 FF F7 B9 FE E1 88 28 46 FF F7 ... -- CPU_WriteMem(1024 bytes @ 0x20000164)  returns 0x400 (0013ms, 1050ms total)
T1EEC 001:468 JLINK_WriteReg(R0, 0x08001000)  returns 0x00 (0000ms, 1063ms total)
T1EEC 001:468 JLINK_WriteReg(R1, 0x00000400)  returns 0x00 (0000ms, 1063ms total)
T1EEC 001:468 JLINK_WriteReg(R2, 0x20000164)  returns 0x00 (0000ms, 1063ms total)
T1EEC 001:468 JLINK_WriteReg(R3, 0x00000000)  returns 0x00 (0000ms, 1063ms total)
T1EEC 001:468 JLINK_WriteReg(R4, 0x00000000)  returns 0x00 (0000ms, 1063ms total)
T1EEC 001:468 JLINK_WriteReg(R5, 0x00000000)  returns 0x00 (0000ms, 1063ms total)
T1EEC 001:468 JLINK_WriteReg(R6, 0x00000000)  returns 0x00 (0000ms, 1063ms total)
T1EEC 001:468 JLINK_WriteReg(R7, 0x00000000)  returns 0x00 (0000ms, 1063ms total)
T1EEC 001:468 JLINK_WriteReg(R8, 0x00000000)  returns 0x00 (0000ms, 1063ms total)
T1EEC 001:468 JLINK_WriteReg(R9, 0x20000160)  returns 0x00 (0000ms, 1063ms total)
T1EEC 001:468 JLINK_WriteReg(R10, 0x00000000)  returns 0x00 (0000ms, 1063ms total)
T1EEC 001:468 JLINK_WriteReg(R11, 0x00000000)  returns 0x00 (0000ms, 1063ms total)
T1EEC 001:468 JLINK_WriteReg(R12, 0x00000000)  returns 0x00 (0000ms, 1063ms total)
T1EEC 001:468 JLINK_WriteReg(R13, 0x20000800)  returns 0x00 (0000ms, 1063ms total)
T1EEC 001:468 JLINK_WriteReg(R14, 0x20000001)  returns 0x00 (0000ms, 1063ms total)
T1EEC 001:468 JLINK_WriteReg(R15, 0x200000F4)  returns 0x00 (0000ms, 1063ms total)
T1EEC 001:468 JLINK_WriteReg(XPSR, 0x01000000)  returns 0x00 (0000ms, 1063ms total)
T1EEC 001:468 JLINK_WriteReg(MSP, 0x20000800)  returns 0x00 (0000ms, 1063ms total)
T1EEC 001:468 JLINK_WriteReg(PSP, 0x20000800)  returns 0x00 (0000ms, 1063ms total)
T1EEC 001:468 JLINK_WriteReg(CFBP, 0x00000000)  returns 0x00 (0000ms, 1063ms total)
T1EEC 001:468 JLINK_SetBPEx(Addr = 0x20000000, Type = 0xFFFFFFF2)  returns 0x00000009 (0000ms, 1063ms total)
T1EEC 001:468 JLINK_Go() -- CPU_WriteMem(4 bytes @ 0xE0002008) -- CPU_WriteMem(4 bytes @ 0xE000200C) -- CPU_WriteMem(4 bytes @ 0xE0002010) -- CPU_WriteMem(4 bytes @ 0xE0002014) -- CPU_WriteMem(4 bytes @ 0xE0002018) -- CPU_WriteMem(4 bytes @ 0xE000201C) (0006ms, 1063ms total)
T1EEC 001:474 JLINK_IsHalted()  returns FALSE (0001ms, 1069ms total)
T1EEC 001:525 JLINK_IsHalted() -- CPU_ReadMem(2 bytes @ 0x20000000)  returns TRUE (0004ms, 1069ms total)
T1EEC 001:529 JLINK_ReadReg(R15)  returns 0x20000000 (0000ms, 1069ms total)
T1EEC 001:529 JLINK_ClrBPEx(BPHandle = 0x00000009)  returns 0x00 (0000ms, 1069ms total)
T1EEC 001:529 JLINK_ReadReg(R0)  returns 0x00000000 (0000ms, 1069ms total)
T1EEC 001:530 JLINK_WriteMem(0x20000164, 0x0400 Bytes, ...) -- Data:  19 40 13 06 41 EA 13 41 81 83 70 47 0A 46 00 21 ... -- CPU_WriteMem(1024 bytes @ 0x20000164)  returns 0x400 (0013ms, 1069ms total)
T1EEC 001:543 JLINK_WriteReg(R0, 0x08001400)  returns 0x00 (0000ms, 1082ms total)
T1EEC 001:543 JLINK_WriteReg(R1, 0x00000400)  returns 0x00 (0000ms, 1082ms total)
T1EEC 001:543 JLINK_WriteReg(R2, 0x20000164)  returns 0x00 (0000ms, 1082ms total)
T1EEC 001:543 JLINK_WriteReg(R3, 0x00000000)  returns 0x00 (0000ms, 1082ms total)
T1EEC 001:543 JLINK_WriteReg(R4, 0x00000000)  returns 0x00 (0000ms, 1082ms total)
T1EEC 001:543 JLINK_WriteReg(R5, 0x00000000)  returns 0x00 (0000ms, 1082ms total)
T1EEC 001:543 JLINK_WriteReg(R6, 0x00000000)  returns 0x00 (0000ms, 1082ms total)
T1EEC 001:543 JLINK_WriteReg(R7, 0x00000000)  returns 0x00 (0000ms, 1082ms total)
T1EEC 001:543 JLINK_WriteReg(R8, 0x00000000)  returns 0x00 (0000ms, 1082ms total)
T1EEC 001:543 JLINK_WriteReg(R9, 0x20000160)  returns 0x00 (0000ms, 1082ms total)
T1EEC 001:543 JLINK_WriteReg(R10, 0x00000000)  returns 0x00 (0000ms, 1082ms total)
T1EEC 001:543 JLINK_WriteReg(R11, 0x00000000)  returns 0x00 (0000ms, 1082ms total)
T1EEC 001:543 JLINK_WriteReg(R12, 0x00000000)  returns 0x00 (0000ms, 1082ms total)
T1EEC 001:543 JLINK_WriteReg(R13, 0x20000800)  returns 0x00 (0000ms, 1082ms total)
T1EEC 001:543 JLINK_WriteReg(R14, 0x20000001)  returns 0x00 (0000ms, 1082ms total)
T1EEC 001:543 JLINK_WriteReg(R15, 0x200000F4)  returns 0x00 (0000ms, 1082ms total)
T1EEC 001:543 JLINK_WriteReg(XPSR, 0x01000000)  returns 0x00 (0000ms, 1082ms total)
T1EEC 001:543 JLINK_WriteReg(MSP, 0x20000800)  returns 0x00 (0000ms, 1082ms total)
T1EEC 001:543 JLINK_WriteReg(PSP, 0x20000800)  returns 0x00 (0000ms, 1082ms total)
T1EEC 001:543 JLINK_WriteReg(CFBP, 0x00000000)  returns 0x00 (0000ms, 1082ms total)
T1EEC 001:543 JLINK_SetBPEx(Addr = 0x20000000, Type = 0xFFFFFFF2)  returns 0x0000000A (0000ms, 1082ms total)
T1EEC 001:543 JLINK_Go() -- CPU_WriteMem(4 bytes @ 0xE0002008) -- CPU_WriteMem(4 bytes @ 0xE000200C) -- CPU_WriteMem(4 bytes @ 0xE0002010) -- CPU_WriteMem(4 bytes @ 0xE0002014) -- CPU_WriteMem(4 bytes @ 0xE0002018) -- CPU_WriteMem(4 bytes @ 0xE000201C) (0006ms, 1082ms total)
T1EEC 001:549 JLINK_IsHalted()  returns FALSE (0000ms, 1088ms total)
T1EEC 001:599 JLINK_IsHalted() -- CPU_ReadMem(2 bytes @ 0x20000000)  returns TRUE (0004ms, 1088ms total)
T1EEC 001:603 JLINK_ReadReg(R15)  returns 0x20000000 (0000ms, 1088ms total)
T1EEC 001:603 JLINK_ClrBPEx(BPHandle = 0x0000000A)  returns 0x00 (0000ms, 1088ms total)
T1EEC 001:603 JLINK_ReadReg(R0)  returns 0x00000000 (0000ms, 1088ms total)
T1EEC 001:604 JLINK_WriteMem(0x20000164, 0x0400 Bytes, ...) -- Data:  01 60 00 21 81 80 C1 80 01 81 0C 21 41 81 00 21 ... -- CPU_WriteMem(1024 bytes @ 0x20000164)  returns 0x400 (0013ms, 1088ms total)
T1EEC 001:617 JLINK_WriteReg(R0, 0x08001800)  returns 0x00 (0000ms, 1101ms total)
T1EEC 001:617 JLINK_WriteReg(R1, 0x00000400)  returns 0x00 (0000ms, 1101ms total)
T1EEC 001:617 JLINK_WriteReg(R2, 0x20000164)  returns 0x00 (0000ms, 1101ms total)
T1EEC 001:617 JLINK_WriteReg(R3, 0x00000000)  returns 0x00 (0000ms, 1101ms total)
T1EEC 001:617 JLINK_WriteReg(R4, 0x00000000)  returns 0x00 (0000ms, 1101ms total)
T1EEC 001:617 JLINK_WriteReg(R5, 0x00000000)  returns 0x00 (0000ms, 1101ms total)
T1EEC 001:617 JLINK_WriteReg(R6, 0x00000000)  returns 0x00 (0000ms, 1101ms total)
T1EEC 001:617 JLINK_WriteReg(R7, 0x00000000)  returns 0x00 (0000ms, 1101ms total)
T1EEC 001:617 JLINK_WriteReg(R8, 0x00000000)  returns 0x00 (0000ms, 1101ms total)
T1EEC 001:617 JLINK_WriteReg(R9, 0x20000160)  returns 0x00 (0000ms, 1101ms total)
T1EEC 001:617 JLINK_WriteReg(R10, 0x00000000)  returns 0x00 (0000ms, 1101ms total)
T1EEC 001:617 JLINK_WriteReg(R11, 0x00000000)  returns 0x00 (0000ms, 1101ms total)
T1EEC 001:617 JLINK_WriteReg(R12, 0x00000000)  returns 0x00 (0000ms, 1101ms total)
T1EEC 001:617 JLINK_WriteReg(R13, 0x20000800)  returns 0x00 (0000ms, 1101ms total)
T1EEC 001:617 JLINK_WriteReg(R14, 0x20000001)  returns 0x00 (0000ms, 1101ms total)
T1EEC 001:617 JLINK_WriteReg(R15, 0x200000F4)  returns 0x00 (0000ms, 1101ms total)
T1EEC 001:617 JLINK_WriteReg(XPSR, 0x01000000)  returns 0x00 (0000ms, 1101ms total)
T1EEC 001:617 JLINK_WriteReg(MSP, 0x20000800)  returns 0x00 (0000ms, 1101ms total)
T1EEC 001:617 JLINK_WriteReg(PSP, 0x20000800)  returns 0x00 (0000ms, 1101ms total)
T1EEC 001:617 JLINK_WriteReg(CFBP, 0x00000000)  returns 0x00 (0000ms, 1101ms total)
T1EEC 001:617 JLINK_SetBPEx(Addr = 0x20000000, Type = 0xFFFFFFF2)  returns 0x0000000B (0000ms, 1101ms total)
T1EEC 001:617 JLINK_Go() -- CPU_WriteMem(4 bytes @ 0xE0002008) -- CPU_WriteMem(4 bytes @ 0xE000200C) -- CPU_WriteMem(4 bytes @ 0xE0002010) -- CPU_WriteMem(4 bytes @ 0xE0002014) -- CPU_WriteMem(4 bytes @ 0xE0002018) -- CPU_WriteMem(4 bytes @ 0xE000201C) (0006ms, 1101ms total)
T1EEC 001:623 JLINK_IsHalted()  returns FALSE (0001ms, 1107ms total)
T1EEC 001:674 JLINK_IsHalted() -- CPU_ReadMem(2 bytes @ 0x20000000)  returns TRUE (0004ms, 1107ms total)
T1EEC 001:678 JLINK_ReadReg(R15)  returns 0x20000000 (0000ms, 1107ms total)
T1EEC 001:678 JLINK_ClrBPEx(BPHandle = 0x0000000B)  returns 0x00 (0000ms, 1107ms total)
T1EEC 001:678 JLINK_ReadReg(R0)  returns 0x00000000 (0000ms, 1107ms total)
T1EEC 001:679 JLINK_WriteMem(0x20000164, 0x0400 Bytes, ...) -- Data:  10 B5 0A 46 00 21 00 23 41 68 21 F4 60 41 53 1E ... -- CPU_WriteMem(1024 bytes @ 0x20000164)  returns 0x400 (0012ms, 1107ms total)
T1EEC 001:691 JLINK_WriteReg(R0, 0x08001C00)  returns 0x00 (0000ms, 1119ms total)
T1EEC 001:691 JLINK_WriteReg(R1, 0x00000400)  returns 0x00 (0000ms, 1119ms total)
T1EEC 001:691 JLINK_WriteReg(R2, 0x20000164)  returns 0x00 (0000ms, 1119ms total)
T1EEC 001:691 JLINK_WriteReg(R3, 0x00000000)  returns 0x00 (0000ms, 1119ms total)
T1EEC 001:691 JLINK_WriteReg(R4, 0x00000000)  returns 0x00 (0000ms, 1119ms total)
T1EEC 001:691 JLINK_WriteReg(R5, 0x00000000)  returns 0x00 (0000ms, 1119ms total)
T1EEC 001:691 JLINK_WriteReg(R6, 0x00000000)  returns 0x00 (0000ms, 1119ms total)
T1EEC 001:691 JLINK_WriteReg(R7, 0x00000000)  returns 0x00 (0001ms, 1119ms total)
T1EEC 001:692 JLINK_WriteReg(R8, 0x00000000)  returns 0x00 (0000ms, 1120ms total)
T1EEC 001:692 JLINK_WriteReg(R9, 0x20000160)  returns 0x00 (0000ms, 1120ms total)
T1EEC 001:692 JLINK_WriteReg(R10, 0x00000000)  returns 0x00 (0000ms, 1120ms total)
T1EEC 001:692 JLINK_WriteReg(R11, 0x00000000)  returns 0x00 (0000ms, 1120ms total)
T1EEC 001:692 JLINK_WriteReg(R12, 0x00000000)  returns 0x00 (0000ms, 1120ms total)
T1EEC 001:692 JLINK_WriteReg(R13, 0x20000800)  returns 0x00 (0000ms, 1120ms total)
T1EEC 001:692 JLINK_WriteReg(R14, 0x20000001)  returns 0x00 (0000ms, 1120ms total)
T1EEC 001:692 JLINK_WriteReg(R15, 0x200000F4)  returns 0x00 (0000ms, 1120ms total)
T1EEC 001:692 JLINK_WriteReg(XPSR, 0x01000000)  returns 0x00 (0000ms, 1120ms total)
T1EEC 001:692 JLINK_WriteReg(MSP, 0x20000800)  returns 0x00 (0000ms, 1120ms total)
T1EEC 001:692 JLINK_WriteReg(PSP, 0x20000800)  returns 0x00 (0000ms, 1120ms total)
T1EEC 001:692 JLINK_WriteReg(CFBP, 0x00000000)  returns 0x00 (0000ms, 1120ms total)
T1EEC 001:692 JLINK_SetBPEx(Addr = 0x20000000, Type = 0xFFFFFFF2)  returns 0x0000000C (0000ms, 1120ms total)
T1EEC 001:692 JLINK_Go() -- CPU_WriteMem(4 bytes @ 0xE0002008) -- CPU_WriteMem(4 bytes @ 0xE000200C) -- CPU_WriteMem(4 bytes @ 0xE0002010) -- CPU_WriteMem(4 bytes @ 0xE0002014) -- CPU_WriteMem(4 bytes @ 0xE0002018) -- CPU_WriteMem(4 bytes @ 0xE000201C) (0006ms, 1120ms total)
T1EEC 001:698 JLINK_IsHalted()  returns FALSE (0001ms, 1126ms total)
T1EEC 001:749 JLINK_IsHalted() -- CPU_ReadMem(2 bytes @ 0x20000000)  returns TRUE (0004ms, 1126ms total)
T1EEC 001:753 JLINK_ReadReg(R15)  returns 0x20000000 (0000ms, 1126ms total)
T1EEC 001:753 JLINK_ClrBPEx(BPHandle = 0x0000000C)  returns 0x00 (0000ms, 1126ms total)
T1EEC 001:753 JLINK_ReadReg(R0)  returns 0x00000000 (0000ms, 1126ms total)
T1EEC 001:754 JLINK_WriteMem(0x20000164, 0x0400 Bytes, ...) -- Data:  30 BD 10 B5 04 24 4F F4 30 20 FF F7 C3 FF 04 46 ... -- CPU_WriteMem(1024 bytes @ 0x20000164)  returns 0x400 (0012ms, 1126ms total)
T1EEC 001:766 JLINK_WriteReg(R0, 0x08002000)  returns 0x00 (0000ms, 1138ms total)
T1EEC 001:766 JLINK_WriteReg(R1, 0x00000400)  returns 0x00 (0000ms, 1138ms total)
T1EEC 001:766 JLINK_WriteReg(R2, 0x20000164)  returns 0x00 (0000ms, 1138ms total)
T1EEC 001:766 JLINK_WriteReg(R3, 0x00000000)  returns 0x00 (0000ms, 1138ms total)
T1EEC 001:766 JLINK_WriteReg(R4, 0x00000000)  returns 0x00 (0000ms, 1138ms total)
T1EEC 001:766 JLINK_WriteReg(R5, 0x00000000)  returns 0x00 (0000ms, 1138ms total)
T1EEC 001:766 JLINK_WriteReg(R6, 0x00000000)  returns 0x00 (0000ms, 1138ms total)
T1EEC 001:766 JLINK_WriteReg(R7, 0x00000000)  returns 0x00 (0000ms, 1138ms total)
T1EEC 001:766 JLINK_WriteReg(R8, 0x00000000)  returns 0x00 (0000ms, 1138ms total)
T1EEC 001:766 JLINK_WriteReg(R9, 0x20000160)  returns 0x00 (0000ms, 1138ms total)
T1EEC 001:766 JLINK_WriteReg(R10, 0x00000000)  returns 0x00 (0000ms, 1138ms total)
T1EEC 001:766 JLINK_WriteReg(R11, 0x00000000)  returns 0x00 (0000ms, 1138ms total)
T1EEC 001:766 JLINK_WriteReg(R12, 0x00000000)  returns 0x00 (0000ms, 1138ms total)
T1EEC 001:766 JLINK_WriteReg(R13, 0x20000800)  returns 0x00 (0000ms, 1138ms total)
T1EEC 001:766 JLINK_WriteReg(R14, 0x20000001)  returns 0x00 (0001ms, 1138ms total)
T1EEC 001:767 JLINK_WriteReg(R15, 0x200000F4)  returns 0x00 (0000ms, 1139ms total)
T1EEC 001:767 JLINK_WriteReg(XPSR, 0x01000000)  returns 0x00 (0000ms, 1139ms total)
T1EEC 001:767 JLINK_WriteReg(MSP, 0x20000800)  returns 0x00 (0000ms, 1139ms total)
T1EEC 001:767 JLINK_WriteReg(PSP, 0x20000800)  returns 0x00 (0000ms, 1139ms total)
T1EEC 001:767 JLINK_WriteReg(CFBP, 0x00000000)  returns 0x00 (0000ms, 1139ms total)
T1EEC 001:767 JLINK_SetBPEx(Addr = 0x20000000, Type = 0xFFFFFFF2)  returns 0x0000000D (0000ms, 1139ms total)
T1EEC 001:767 JLINK_Go() -- CPU_WriteMem(4 bytes @ 0xE0002008) -- CPU_WriteMem(4 bytes @ 0xE000200C) -- CPU_WriteMem(4 bytes @ 0xE0002010) -- CPU_WriteMem(4 bytes @ 0xE0002014) -- CPU_WriteMem(4 bytes @ 0xE0002018) -- CPU_WriteMem(4 bytes @ 0xE000201C) (0006ms, 1139ms total)
T1EEC 001:773 JLINK_IsHalted()  returns FALSE (0001ms, 1145ms total)
T1EEC 001:824 JLINK_IsHalted() -- CPU_ReadMem(2 bytes @ 0x20000000)  returns TRUE (0004ms, 1145ms total)
T1EEC 001:828 JLINK_ReadReg(R15)  returns 0x20000000 (0000ms, 1145ms total)
T1EEC 001:828 JLINK_ClrBPEx(BPHandle = 0x0000000D)  returns 0x00 (0000ms, 1145ms total)
T1EEC 001:828 JLINK_ReadReg(R0)  returns 0x00000000 (0000ms, 1145ms total)
T1EEC 001:829 JLINK_WriteMem(0x20000164, 0x0400 Bytes, ...) -- Data:  20 46 F0 BD 28 48 C0 69 80 08 70 47 26 48 00 6A ... -- CPU_WriteMem(1024 bytes @ 0x20000164)  returns 0x400 (0012ms, 1145ms total)
T1EEC 001:841 JLINK_WriteReg(R0, 0x08002400)  returns 0x00 (0000ms, 1157ms total)
T1EEC 001:841 JLINK_WriteReg(R1, 0x00000400)  returns 0x00 (0000ms, 1157ms total)
T1EEC 001:841 JLINK_WriteReg(R2, 0x20000164)  returns 0x00 (0000ms, 1157ms total)
T1EEC 001:841 JLINK_WriteReg(R3, 0x00000000)  returns 0x00 (0000ms, 1157ms total)
T1EEC 001:841 JLINK_WriteReg(R4, 0x00000000)  returns 0x00 (0000ms, 1157ms total)
T1EEC 001:841 JLINK_WriteReg(R5, 0x00000000)  returns 0x00 (0000ms, 1157ms total)
T1EEC 001:841 JLINK_WriteReg(R6, 0x00000000)  returns 0x00 (0001ms, 1157ms total)
T1EEC 001:842 JLINK_WriteReg(R7, 0x00000000)  returns 0x00 (0000ms, 1158ms total)
T1EEC 001:842 JLINK_WriteReg(R8, 0x00000000)  returns 0x00 (0000ms, 1158ms total)
T1EEC 001:842 JLINK_WriteReg(R9, 0x20000160)  returns 0x00 (0000ms, 1158ms total)
T1EEC 001:842 JLINK_WriteReg(R10, 0x00000000)  returns 0x00 (0000ms, 1158ms total)
T1EEC 001:842 JLINK_WriteReg(R11, 0x00000000)  returns 0x00 (0000ms, 1158ms total)
T1EEC 001:842 JLINK_WriteReg(R12, 0x00000000)  returns 0x00 (0000ms, 1158ms total)
T1EEC 001:842 JLINK_WriteReg(R13, 0x20000800)  returns 0x00 (0000ms, 1158ms total)
T1EEC 001:842 JLINK_WriteReg(R14, 0x20000001)  returns 0x00 (0000ms, 1158ms total)
T1EEC 001:842 JLINK_WriteReg(R15, 0x200000F4)  returns 0x00 (0000ms, 1158ms total)
T1EEC 001:842 JLINK_WriteReg(XPSR, 0x01000000)  returns 0x00 (0000ms, 1158ms total)
T1EEC 001:842 JLINK_WriteReg(MSP, 0x20000800)  returns 0x00 (0000ms, 1158ms total)
T1EEC 001:842 JLINK_WriteReg(PSP, 0x20000800)  returns 0x00 (0000ms, 1158ms total)
T1EEC 001:842 JLINK_WriteReg(CFBP, 0x00000000)  returns 0x00 (0000ms, 1158ms total)
T1EEC 001:842 JLINK_SetBPEx(Addr = 0x20000000, Type = 0xFFFFFFF2)  returns 0x0000000E (0000ms, 1158ms total)
T1EEC 001:842 JLINK_Go() -- CPU_WriteMem(4 bytes @ 0xE0002008) -- CPU_WriteMem(4 bytes @ 0xE000200C) -- CPU_WriteMem(4 bytes @ 0xE0002010) -- CPU_WriteMem(4 bytes @ 0xE0002014) -- CPU_WriteMem(4 bytes @ 0xE0002018) -- CPU_WriteMem(4 bytes @ 0xE000201C) (0007ms, 1158ms total)
T1EEC 001:849 JLINK_IsHalted()  returns FALSE (0001ms, 1165ms total)
T1EEC 001:900 JLINK_IsHalted() -- CPU_ReadMem(2 bytes @ 0x20000000)  returns TRUE (0004ms, 1165ms total)
T1EEC 001:904 JLINK_ReadReg(R15)  returns 0x20000000 (0000ms, 1165ms total)
T1EEC 001:904 JLINK_ClrBPEx(BPHandle = 0x0000000E)  returns 0x00 (0000ms, 1165ms total)
T1EEC 001:904 JLINK_ReadReg(R0)  returns 0x00000000 (0000ms, 1165ms total)
T1EEC 001:905 JLINK_WriteMem(0x20000164, 0x0400 Bytes, ...) -- Data:  02 28 02 D1 00 F0 AA FB 1A E0 1E 48 00 78 03 28 ... -- CPU_WriteMem(1024 bytes @ 0x20000164)  returns 0x400 (0012ms, 1165ms total)
T1EEC 001:917 JLINK_WriteReg(R0, 0x08002800)  returns 0x00 (0000ms, 1177ms total)
T1EEC 001:917 JLINK_WriteReg(R1, 0x00000400)  returns 0x00 (0000ms, 1177ms total)
T1EEC 001:917 JLINK_WriteReg(R2, 0x20000164)  returns 0x00 (0000ms, 1177ms total)
T1EEC 001:917 JLINK_WriteReg(R3, 0x00000000)  returns 0x00 (0000ms, 1177ms total)
T1EEC 001:917 JLINK_WriteReg(R4, 0x00000000)  returns 0x00 (0000ms, 1177ms total)
T1EEC 001:917 JLINK_WriteReg(R5, 0x00000000)  returns 0x00 (0000ms, 1177ms total)
T1EEC 001:917 JLINK_WriteReg(R6, 0x00000000)  returns 0x00 (0000ms, 1177ms total)
T1EEC 001:917 JLINK_WriteReg(R7, 0x00000000)  returns 0x00 (0000ms, 1177ms total)
T1EEC 001:917 JLINK_WriteReg(R8, 0x00000000)  returns 0x00 (0000ms, 1177ms total)
T1EEC 001:917 JLINK_WriteReg(R9, 0x20000160)  returns 0x00 (0000ms, 1177ms total)
T1EEC 001:917 JLINK_WriteReg(R10, 0x00000000)  returns 0x00 (0000ms, 1177ms total)
T1EEC 001:917 JLINK_WriteReg(R11, 0x00000000)  returns 0x00 (0000ms, 1177ms total)
T1EEC 001:917 JLINK_WriteReg(R12, 0x00000000)  returns 0x00 (0000ms, 1177ms total)
T1EEC 001:917 JLINK_WriteReg(R13, 0x20000800)  returns 0x00 (0000ms, 1177ms total)
T1EEC 001:917 JLINK_WriteReg(R14, 0x20000001)  returns 0x00 (0000ms, 1177ms total)
T1EEC 001:918 JLINK_WriteReg(R15, 0x200000F4)  returns 0x00 (0000ms, 1178ms total)
T1EEC 001:918 JLINK_WriteReg(XPSR, 0x01000000)  returns 0x00 (0000ms, 1178ms total)
T1EEC 001:918 JLINK_WriteReg(MSP, 0x20000800)  returns 0x00 (0000ms, 1178ms total)
T1EEC 001:918 JLINK_WriteReg(PSP, 0x20000800)  returns 0x00 (0000ms, 1178ms total)
T1EEC 001:918 JLINK_WriteReg(CFBP, 0x00000000)  returns 0x00 (0000ms, 1178ms total)
T1EEC 001:918 JLINK_SetBPEx(Addr = 0x20000000, Type = 0xFFFFFFF2)  returns 0x0000000F (0000ms, 1178ms total)
T1EEC 001:918 JLINK_Go() -- CPU_WriteMem(4 bytes @ 0xE0002008) -- CPU_WriteMem(4 bytes @ 0xE000200C) -- CPU_WriteMem(4 bytes @ 0xE0002010) -- CPU_WriteMem(4 bytes @ 0xE0002014) -- CPU_WriteMem(4 bytes @ 0xE0002018) -- CPU_WriteMem(4 bytes @ 0xE000201C) (0006ms, 1178ms total)
T1EEC 001:924 JLINK_IsHalted()  returns FALSE (0001ms, 1184ms total)
T1EEC 001:975 JLINK_IsHalted() -- CPU_ReadMem(2 bytes @ 0x20000000)  returns TRUE (0031ms, 1184ms total)
T1EEC 002:006 JLINK_ReadReg(R15)  returns 0x20000000 (0001ms, 1184ms total)
T1EEC 002:007 JLINK_ClrBPEx(BPHandle = 0x0000000F)  returns 0x00 (0000ms, 1185ms total)
T1EEC 002:007 JLINK_ReadReg(R0)  returns 0x00000000 (0000ms, 1185ms total)
T1EEC 002:007 JLINK_WriteMem(0x20000164, 0x0400 Bytes, ...) -- Data:  D2 FB BD E8 FF 81 10 B5 FF F7 7D FF FF F7 92 FF ... -- CPU_WriteMem(1024 bytes @ 0x20000164)  returns 0x400 (0013ms, 1185ms total)
T1EEC 002:021 JLINK_WriteReg(R0, 0x08002C00)  returns 0x00 (0000ms, 1198ms total)
T1EEC 002:021 JLINK_WriteReg(R1, 0x00000400)  returns 0x00 (0000ms, 1198ms total)
T1EEC 002:021 JLINK_WriteReg(R2, 0x20000164)  returns 0x00 (0000ms, 1198ms total)
T1EEC 002:021 JLINK_WriteReg(R3, 0x00000000)  returns 0x00 (0000ms, 1198ms total)
T1EEC 002:021 JLINK_WriteReg(R4, 0x00000000)  returns 0x00 (0000ms, 1198ms total)
T1EEC 002:021 JLINK_WriteReg(R5, 0x00000000)  returns 0x00 (0000ms, 1198ms total)
T1EEC 002:021 JLINK_WriteReg(R6, 0x00000000)  returns 0x00 (0000ms, 1198ms total)
T1EEC 002:021 JLINK_WriteReg(R7, 0x00000000)  returns 0x00 (0000ms, 1198ms total)
T1EEC 002:021 JLINK_WriteReg(R8, 0x00000000)  returns 0x00 (0000ms, 1198ms total)
T1EEC 002:021 JLINK_WriteReg(R9, 0x20000160)  returns 0x00 (0000ms, 1198ms total)
T1EEC 002:021 JLINK_WriteReg(R10, 0x00000000)  returns 0x00 (0000ms, 1198ms total)
T1EEC 002:021 JLINK_WriteReg(R11, 0x00000000)  returns 0x00 (0000ms, 1198ms total)
T1EEC 002:021 JLINK_WriteReg(R12, 0x00000000)  returns 0x00 (0000ms, 1198ms total)
T1EEC 002:021 JLINK_WriteReg(R13, 0x20000800)  returns 0x00 (0000ms, 1198ms total)
T1EEC 002:021 JLINK_WriteReg(R14, 0x20000001)  returns 0x00 (0000ms, 1198ms total)
T1EEC 002:021 JLINK_WriteReg(R15, 0x200000F4)  returns 0x00 (0000ms, 1198ms total)
T1EEC 002:021 JLINK_WriteReg(XPSR, 0x01000000)  returns 0x00 (0000ms, 1198ms total)
T1EEC 002:021 JLINK_WriteReg(MSP, 0x20000800)  returns 0x00 (0000ms, 1198ms total)
T1EEC 002:021 JLINK_WriteReg(PSP, 0x20000800)  returns 0x00 (0000ms, 1198ms total)
T1EEC 002:021 JLINK_WriteReg(CFBP, 0x00000000)  returns 0x00 (0000ms, 1198ms total)
T1EEC 002:021 JLINK_SetBPEx(Addr = 0x20000000, Type = 0xFFFFFFF2)  returns 0x00000010 (0000ms, 1198ms total)
T1EEC 002:021 JLINK_Go() -- CPU_WriteMem(4 bytes @ 0xE0002008) -- CPU_WriteMem(4 bytes @ 0xE000200C) -- CPU_WriteMem(4 bytes @ 0xE0002010) -- CPU_WriteMem(4 bytes @ 0xE0002014) -- CPU_WriteMem(4 bytes @ 0xE0002018) -- CPU_WriteMem(4 bytes @ 0xE000201C) (0006ms, 1198ms total)
T1EEC 002:027 JLINK_IsHalted()  returns FALSE (0001ms, 1204ms total)
T1EEC 002:078 JLINK_IsHalted() -- CPU_ReadMem(2 bytes @ 0x20000000)  returns TRUE (0004ms, 1204ms total)
T1EEC 002:083 JLINK_ReadReg(R15)  returns 0x20000000 (0000ms, 1204ms total)
T1EEC 002:083 JLINK_ClrBPEx(BPHandle = 0x00000010)  returns 0x00 (0000ms, 1204ms total)
T1EEC 002:083 JLINK_ReadReg(R0)  returns 0x00000000 (0000ms, 1204ms total)
T1EEC 002:083 JLINK_WriteMem(0x20000164, 0x0400 Bytes, ...) -- Data:  09 E0 4F F4 00 51 D9 48 FD F7 01 FA 4F F4 80 51 ... -- CPU_WriteMem(1024 bytes @ 0x20000164)  returns 0x400 (0013ms, 1204ms total)
T1EEC 002:096 JLINK_WriteReg(R0, 0x08003000)  returns 0x00 (0000ms, 1217ms total)
T1EEC 002:096 JLINK_WriteReg(R1, 0x00000400)  returns 0x00 (0000ms, 1217ms total)
T1EEC 002:096 JLINK_WriteReg(R2, 0x20000164)  returns 0x00 (0000ms, 1217ms total)
T1EEC 002:096 JLINK_WriteReg(R3, 0x00000000)  returns 0x00 (0000ms, 1217ms total)
T1EEC 002:096 JLINK_WriteReg(R4, 0x00000000)  returns 0x00 (0000ms, 1217ms total)
T1EEC 002:096 JLINK_WriteReg(R5, 0x00000000)  returns 0x00 (0000ms, 1217ms total)
T1EEC 002:096 JLINK_WriteReg(R6, 0x00000000)  returns 0x00 (0000ms, 1217ms total)
T1EEC 002:096 JLINK_WriteReg(R7, 0x00000000)  returns 0x00 (0000ms, 1217ms total)
T1EEC 002:096 JLINK_WriteReg(R8, 0x00000000)  returns 0x00 (0000ms, 1217ms total)
T1EEC 002:096 JLINK_WriteReg(R9, 0x20000160)  returns 0x00 (0000ms, 1217ms total)
T1EEC 002:096 JLINK_WriteReg(R10, 0x00000000)  returns 0x00 (0000ms, 1217ms total)
T1EEC 002:096 JLINK_WriteReg(R11, 0x00000000)  returns 0x00 (0000ms, 1217ms total)
T1EEC 002:096 JLINK_WriteReg(R12, 0x00000000)  returns 0x00 (0000ms, 1217ms total)
T1EEC 002:096 JLINK_WriteReg(R13, 0x20000800)  returns 0x00 (0000ms, 1217ms total)
T1EEC 002:096 JLINK_WriteReg(R14, 0x20000001)  returns 0x00 (0000ms, 1217ms total)
T1EEC 002:096 JLINK_WriteReg(R15, 0x200000F4)  returns 0x00 (0000ms, 1217ms total)
T1EEC 002:096 JLINK_WriteReg(XPSR, 0x01000000)  returns 0x00 (0000ms, 1217ms total)
T1EEC 002:096 JLINK_WriteReg(MSP, 0x20000800)  returns 0x00 (0000ms, 1217ms total)
T1EEC 002:096 JLINK_WriteReg(PSP, 0x20000800)  returns 0x00 (0000ms, 1217ms total)
T1EEC 002:096 JLINK_WriteReg(CFBP, 0x00000000)  returns 0x00 (0000ms, 1217ms total)
T1EEC 002:096 JLINK_SetBPEx(Addr = 0x20000000, Type = 0xFFFFFFF2)  returns 0x00000011 (0000ms, 1217ms total)
T1EEC 002:096 JLINK_Go() -- CPU_WriteMem(4 bytes @ 0xE0002008) -- CPU_WriteMem(4 bytes @ 0xE000200C) -- CPU_WriteMem(4 bytes @ 0xE0002010) -- CPU_WriteMem(4 bytes @ 0xE0002014) -- CPU_WriteMem(4 bytes @ 0xE0002018) -- CPU_WriteMem(4 bytes @ 0xE000201C) (0007ms, 1217ms total)
T1EEC 002:103 JLINK_IsHalted()  returns FALSE (0001ms, 1224ms total)
T1EEC 002:154 JLINK_IsHalted() -- CPU_ReadMem(2 bytes @ 0x20000000)  returns TRUE (0004ms, 1224ms total)
T1EEC 002:158 JLINK_ReadReg(R15)  returns 0x20000000 (0000ms, 1224ms total)
T1EEC 002:158 JLINK_ClrBPEx(BPHandle = 0x00000011)  returns 0x00 (0000ms, 1224ms total)
T1EEC 002:158 JLINK_ReadReg(R0)  returns 0x00000000 (0000ms, 1224ms total)
T1EEC 002:159 JLINK_WriteMem(0x20000164, 0x0400 Bytes, ...) -- Data:  2D FC 17 D2 29 46 30 46 04 F0 F4 F9 41 46 01 90 ... -- CPU_WriteMem(1024 bytes @ 0x20000164)  returns 0x400 (0013ms, 1224ms total)
